Time [s],Channel 0,Channel 1,Channel 2,Channel 3
0.000000000,1,0,0,1
0.001712200,0,0,0,1
0.001721200,0,0,0,0
0.004715800,0,1,0,0
0.004724900,0,1,0,1
0.006718900,1,1,0,1
0.007720300,1,1,0,0
0.008721300,1,1,1,0
0.010724200,1,1,1,1
0.011726200,1,0,1,1
0.011735200,0,0,1,1
0.013729300,0,0,1,0
0.016734100,1,0,1,0
0.016743300,1,0,1,1
0.018736400,1,1,1,1
0.019738500,1,1,0,1
0.019747700,1,1,0,0
0.021741500,0,1,0,0
0.022742700,0,1,0,1
0.025746900,0,0,0,1
0.025756100,0,0,0,0
0.026748800,1,0,0,0
0.028751400,1,0,0,1
0.030754000,1,0,1,1
0.031756100,0,0,1,1
0.031765100,0,0,1,0
0.032758000,0,1,1,0
0.034760400,0,1,1,1
0.036762700,1,1,1,1
0.037764200,1,1,1,0
0.039766500,1,0,1,0
0.040768000,1,0,1,1
0.041770000,1,0,0,1
0.041779100,0,0,0,1
0.043773200,0,0,0,0
0.046777800,0,1,0,0
0.046786800,1,1,0,0
0.046795600,1,1,0,1
0.049780400,1,1,0,0
0.051782900,0,1,0,0
0.052784900,0,1,1,0
0.052794000,0,1,1,1
0.053786700,0,0,1,1
0.055789100,0,0,1,0
0.056790100,1,0,1,0
0.058792500,1,0,1,1
0.060796800,1,1,1,1
0.061798800,0,1,1,1
0.061807900,0,1,1,0
0.063800100,0,1,0,0
0.064801400,0,1,0,1
0.066803900,1,1,0,1
0.067805900,1,0,0,1
0.067815000,1,0,0,0
0.070810100,1,0,0,1
0.071811000,0,0,0,1
0.073813700,0,0,0,0
0.074815800,0,0,1,0
0.074825000,0,1,1,0
0.076819900,1,1,1,0
0.076829000,1,1,1,1
0.079822200,1,1,1,0
0.081825600,1,0,1,0
0.081834700,0,0,1,0
0.082827700,0,0,1,1
0.085831700,0,0,0,1
0.085840900,0,0,0,0
0.086832500,1,0,0,0
0.088835600,1,1,0,0
0.088844600,1,1,0,1
0.091840400,0,1,0,1
0.091849500,0,1,0,0
0.094844900,0,1,0,1
0.095846400,0,0,0,1
0.096848500,0,0,1,1
0.096857700,1,0,1,1
0.097848900,1,0,1,0
0.100852200,1,0,1,1
0.101855000,0,0,1,1
0.102856200,0,1,1,1
0.103857500,0,1,1,0
0.106861400,1,1,1,0
0.106870600,1,1,1,1
0.107861900,1,1,0,1
0.109865200,1,0,0,1
0.109874200,1,0,0,0
0.111868400,0,0,0,0
0.112869600,0,0,0,1
0.115874900,0,0,0,0
0.116876900,0,1,0,0
0.116886100,1,1,0,0
0.118879400,1,1,1,0
0.118888500,1,1,1,1
0.121882800,0,1,1,1
0.121891800,0,1,1,0
0.123885800,0,0,1,0
0.124887100,0,0,1,1
0.126889700,1,0,1,1
0.127891200,1,0,1,0
0.129893700,1,0,0,0
0.130896000,1,1,0,0
0.130905000,1,1,0,1
0.131897800,0,1,0,1
0.133900000,0,1,0,0
0.136906200,1,1,0,0
0.136915400,1,1,0,1
0.137906700,1,0,0,1
0.139909800,1,0,0,0
0.140911300,1,0,1,0
0.141912900,0,0,1,0
0.142914400,0,0,1,1
0.144916900,0,1,1,1
0.145918400,0,1,1,0
0.146921000,1,1,1,0
0.148923600,1,1,1,1
0.151929400,1,1,0,1
0.151938000,1,0,0,1
0.151946900,0,0,0,1
0.151955800,0,0,0,0
0.154931400,0,0,0,1
0.156935400,1,0,0,1
0.157936600,1,0,0,0
0.158937600,1,1,0,0
0.160940300,1,1,0,1
0.161941700,0,1,0,1
0.162943100,0,1,1,1
0.163944600,0,1,1,0
0.165948700,0,0,1,0
0.166950500,1,0,1,0
0.166959300,1,0,1,1
0.169952800,1,0,1,0
0.171957000,0,0,1,0
0.172959100,0,1,1,0
0.172968300,0,1,1,1
0.173959600,0,1,0,1
0.175962600,0,1,0,0
0.176963900,1,1,0,0
0.178968400,1,1,0,1
0.179969800,1,0,0,1
0.181973500,0,0,0,1
0.181982700,0,0,0,0
0.184977700,0,0,1,0
0.184986800,0,0,1,1
0.186980700,0,1,1,1
0.186989700,1,1,1,1
0.187982700,1,1,1,0
0.190986000,1,1,1,1
0.191987300,0,1,1,1
0.193992500,0,0,1,1
0.194001700,0,0,1,0
0.195994300,0,0,0,0
0.196996300,1,0,0,0
0.197005300,1,0,0,1
0.199998700,1,0,0,0
0.201001400,1,1,0,0
0.202002600,0,1,0,0
0.203003700,0,1,0,1
0.206007200,0,1,0,0
0.207009400,0,1,1,0
0.207018600,1,1,1,0
0.208010300,1,0,1,0
0.209013300,1,0,1,1
0.212018000,0,0,1,1
0.212027000,0,0,1,0
0.215023600,0,1,1,0
0.215032800,0,1,1,1
0.217025500,1,1,1,1
0.218027600,1,1,0,1
0.218036800,1,1,0,0
0.221030200,1,1,0,1
0.222032200,1,0,0,1
0.222041300,0,0,0,1
0.224035200,0,0,0,0
0.227039200,1,0,0,0
0.227048400,1,0,0,1
0.229041600,1,0,1,1
0.229050800,1,1,1,1
0.230043800,1,1,1,0
0.232045700,0,1,1,0
0.233046900,0,1,1,1
0.236052700,0,0,1,1
0.236061800,0,0,1,0
0.237052900,1,0,1,0
0.239055200,1,0,1,1
0.240056500,1,0,0,1
0.242059700,0,0,0,1
0.242068800,0,0,0,0
0.243061500,0,1,0,0
0.245063900,0,1,0,1
0.247066100,1,1,0,1
0.248067500,1,1,0,0
0.250071900,1,0,0,0
0.251074000,1,0,1,0
0.251083100,1,0,1,1
0.252074300,0,0,1,1
0.254077000,0,0,1,0
0.257082300,0,1,1,0
0.257091200,1,1,1,0
0.257100300,1,1,1,1
0.260086100,1,1,1,0
0.262089700,1,1,0,0
0.262098800,0,1,0,0
0.263090500,0,1,0,1
0.264093400,0,0,0,1
0.266096200,0,0,0,0
0.267097200,1,0,0,0
0.269099800,1,0,0,1
0.271103800,1,1,0,1
0.272105900,0,1,0,1
0.272114900,0,1,0,0
0.273106000,0,1,1,0
0.275108800,0,1,1,1
0.277111400,1,1,1,1
0.278113500,1,0,1,1
0.278122600,1,0,1,0
0.281117800,1,0,1,1
0.282119100,0,0,1,1
0.284122600,0,0,0,1
0.284131700,0,0,0,0
0.285123200,0,1,0,0
0.287128200,1,1,0,0
0.287137200,1,1,0,1
0.290130700,1,1,0,0
0.292134400,1,0,0,0
0.292143500,0,0,0,0
0.293136500,0,0,0,1
0.295138700,0,0,1,1
0.296140100,0,0,1,0
0.297141300,1,0,1,0
0.299144600,1,1,1,0
0.299153700,1,1,1,1
0.302150200,0,1,1,1
0.302159300,0,1,1,0
0.305153300,0,1,1,1
0.306155500,0,1,0,1
0.306164700,0,0,0,1
0.307157900,1,0,0,1
0.308158900,1,0,0,0
0.311162600,1,0,0,1
0.312164100,0,0,0,1
0.313165600,0,1,0,1
0.314167200,0,1,0,0
0.317174200,0,1,1,0
0.317183100,1,1,1,0
0.317192100,1,1,1,1
0.320177100,1,0,1,1
0.320186100,1,0,1,0
0.322180400,0,0,1,0
0.323181700,0,0,1,1
0.326186900,0,0,1,0
0.327189000,0,1,1,0
0.327198200,1,1,1,0
0.328189700,1,1,0,0
0.329191100,1,1,0,1
0.332195500,0,1,0,1
0.332204500,0,1,0,0
0.334198700,0,0,0,0
0.335200100,0,0,0,1
0.337202700,1,0,0,1
0.338204100,1,0,0,0
0.339205500,1,0,1,0
0.341209100,1,1,1,0
0.341218100,1,1,1,1
0.342211100,0,1,1,1
0.344213600,0,1,1,0
0.347219800,1,1,1,0
0.347228900,1,1,1,1
0.348220300,1,0,1,1
0.350223900,1,0,0,1
0.350233000,1,0,0,0
0.352225800,0,0,0,0
0.353227000,0,0,0,1
0.355230800,0,1,0,1
0.356232200,0,1,0,0
0.357233100,1,1,0,0
0.359235700,1,1,0,1
0.361238300,1,1,1,1
0.362241000,1,0,1,1
0.362249800,0,0,1,1
0.362258700,0,0,1,0
0.365243900,0,0,1,1
0.367247700,1,0,1,1
0.368249000,1,0,1,0
0.369250000,1,1,1,0
0.371252600,1,1,1,1
0.372254500,1,1,0,1
0.372263700,0,1,0,1
0.374256400,0,1,0,0
0.376260400,0,0,0,0
0.377262500,1,0,0,0
0.377271300,1,0,0,1
0.380264800,1,0,0,0
0.382269100,0,0,0,0
0.383271800,0,0,1,0
0.383280700,0,1,1,0
0.383289700,0,1,1,1
0.386273400,0,1,1,0
0.387276000,1,1,1,0
0.389278300,1,1,1,1
0.390279400,1,0,1,1
0.392282600,0,0,1,1
0.392291800,0,0,1,0
0.394284200,0,0,0,0
0.395285600,0,0,0,1
0.397290300,0,1,0,1
0.397299300,1,1,0,1
0.398290400,1,1,0,0
0.401293800,1,1,0,1
0.402296800,0,1,0,1
0.404300500,0,0,0,1
0.404309700,0,0,0,0
0.405301300,0,0,1,0
0.407305000,1,0,1,0
0.407314000,1,0,1,1
0.410309800,1,0,1,0
0.411311200,1,1,1,0
0.412312800,0,1,1,0
0.413314200,0,1,1,1
0.416319000,0,1,0,1
0.416328200,0,1,0,0
0.417321400,1,1,0,0
0.418322800,1,0,0,0
0.419324200,1,0,0,1
0.422328900,0,0,0,1
0.422338100,0,0,0,0
0.425334400,0,1,0,0
0.425343600,0,1,0,1
0.427337300,0,1,1,1
0.427346500,1,1,1,1
0.428338100,1,1,1,0
0.431343800,1,1,1,1
0.432345900,1,0,1,1
0.432355100,0,0,1,1
0.434347900,0,0,1,0
0.437354100,1,0,1,0
0.437363200,1,0,1,1
0.438354800,1,0,0,1
0.439356300,1,1,0,1
0.440357600,1,1,0,0
0.442359800,0,1,0,0
0.443362700,0,1,0,1
0.446366800,0,0,0,1
0.446376000,0,0,0,0
0.447367500,1,0,0,0
0.449370900,1,0,1,0
0.449380000,1,0,1,1
0.452376100,0,0,1,1
0.452385100,0,0,1,0
0.453376200,0,1,1,0
0.455379200,0,1,1,1
0.457383300,1,1,1,1
0.458384800,1,1,1,0
0.460388200,1,1,0,0
0.460397400,1,0,0,0
0.461389000,1,0,0,1
0.462390300,0,0,0,1
0.464394800,0,0,0,0
0.467400000,0,1,0,0
0.467408900,1,1,0,0
0.467418000,1,1,0,1
0.470403100,1,1,0,0
0.471404200,1,1,1,0
0.472405500,0,1,1,0
0.473406800,0,1,1,1
0.474407800,0,0,1,1
0.476412100,0,0,1,0
0.477413100,1,0,1,0
0.479415600,1,0,1,1
0.481418300,1,1,1,1
0.482421100,1,1,0,1
0.482430100,0,1,0,1
0.482438900,0,1,0,0
0.485424200,0,1,0,1
0.487427100,1,1,0,1
0.488429100,1,0,0,1
0.488438200,1,0,0,0
0.491433600,1,0,0,1
0.492435000,0,0,0,1
0.493436700,0,0,1,1
0.494438200,0,0,1,0
0.495439500,0,1,1,0
0.497443000,1,1,1,0
0.497452000,1,1,1,1
0.500447400,1,1,1,0
0.502450800,1,0,1,0
0.502460000,0,0,1,0
0.503451700,0,0,1,1
0.504454400,0,0,0,1
0.506457400,0,0,0,0
0.507458800,1,0,0,0
0.509462200,1,1,0,0
0.509471400,1,1,0,1
0.512467800,0,1,0,1
0.512476900,0,1,0,0
0.515471700,0,1,1,0
0.515480800,0,1,1,1
0.516472400,0,0,1,1
0.517473900,1,0,1,1
0.518476700,1,0,1,0
0.521480400,1,0,1,1
0.522481800,0,0,1,1
0.523483400,0,1,1,1
0.524484900,0,1,1,0
0.526489400,0,1,0,0
0.527491700,1,1,0,0
0.527500700,1,1,0,1
0.530495400,1,0,0,1
0.530504500,1,0,0,0
0.532497400,0,0,0,0
0.533499000,0,0,0,1
0.536504100,0,0,0,0
0.537507000,0,0,1,0
0.537515900,0,1,1,0
0.537524900,1,1,1,0
0.539508900,1,1,1,1
0.542512800,0,1,1,1
0.542521800,0,1,1,0
0.544515900,0,0,1,0
0.545517400,0,0,1,1
0.547519900,1,0,1,1
0.548522000,1,0,0,1
0.548531200,1,0,0,0
0.551525600,1,1,0,0
0.551534600,1,1,0,1
0.552527200,0,1,0,1
0.554529300,0,1,0,0
0.557535400,1,1,0,0
0.557544600,1,1,0,1
0.558535800,1,0,0,1
0.559537200,1,0,1,1
0.560538400,1,0,1,0
0.562540600,0,0,1,0
0.563541800,0,0,1,1
0.565544100,0,1,1,1
0.566545600,0,1,1,0
0.567548200,1,1,1,0
0.569550800,1,1,1,1
0.570552200,1,1,0,1
0.572556200,1,0,0,1
0.572565100,0,0,0,1
0.572573900,0,0,0,0
0.575559100,0,0,0,1
0.577561600,1,0,0,1
0.578563000,1,0,0,0
0.579564300,1,1,0,0
0.581569200,1,1,1,0
0.581578400,1,1,1,1
0.582569500,0,1,1,1
0.584571900,0,1,1,0
0.586574400,0,0,1,0
0.587576500,1,0,1,0
0.587585500,1,0,1,1
0.590580600,1,0,1,0
0.592584400,1,0,0,0
0.592593600,0,0,0,0
0.593585800,0,1,0,0
0.593594800,0,1,0,1
0.596590300,0,1,0,0
0.597591500,1,1,0,0
0.599594400,1,1,0,1
0.600597400,1,0,0,1
0.602601000,0,0,0,1
0.602610100,0,0,0,0
0.603601300,0,0,1,0
0.605604300,0,0,1,1
0.607607800,0,1,1,1
0.607617000,1,1,1,1
0.608609900,1,1,1,0
0.611613100,1,1,1,1
0.612614200,0,1,1,1
0.614618100,0,1,0,1
0.614627100,0,0,0,1
0.614636100,0,0,0,0
0.617621800,1,0,0,0
0.617630800,1,0,0,1
0.620625900,1,0,0,0
0.621627200,1,1,0,0
0.622628600,0,1,0,0
0.623629800,0,1,0,1
0.625632500,0,1,1,1
0.626634000,0,1,1,0
0.627635400,1,1,1,0
0.628638300,1,0,1,0
0.629639400,1,0,1,1
0.632643400,0,0,1,1
0.632652600,0,0,1,0
0.635648800,0,1,1,0
0.635658000,0,1,1,1
0.636649400,0,1,0,1
0.637650900,1,1,0,1
0.638652200,1,1,0,0
0.641656000,1,1,0,1
0.642658200,1,0,0,1
0.642667300,0,0,0,1
0.644661900,0,0,0,0
0.647667200,0,0,1,0
0.647676100,1,0,1,0
0.647685100,1,0,1,1
0.649669200,1,1,1,1
0.650670400,1,1,1,0
0.652672400,0,1,1,0
0.653673600,0,1,1,1
0.656679300,0,0,1,1
0.656688500,0,0,1,0
0.657679800,1,0,1,0
0.658681100,1,0,0,0
0.659682500,1,0,0,1
0.662688600,0,0,0,1
0.662697600,0,0,0,0
0.663688700,0,1,0,0
0.665691300,0,1,0,1
0.667693700,1,1,0,1
0.668695300,1,1,0,0
0.669696800,1,1,1,0
0.670698400,1,0,1,0
0.671701300,1,0,1,1
0.672702300,0,0,1,1
0.674704800,0,0,1,0
0.677710400,0,1,1,0
0.677719400,1,1,1,0
0.677728400,1,1,1,1
0.680715000,1,1,0,1
0.680724100,1,1,0,0
0.682716700,0,1,0,0
0.683719500,0,1,0,1
0.684720500,0,0,0,1
0.686723100,0,0,0,0
0.687724000,1,0,0,0
0.689726800,1,0,0,1
0.691730200,1,0,1,1
0.691739400,1,1,1,1
0.692733300,0,1,1,1
0.692742100,0,1,1,0
0.695736200,0,1,1,1
0.697740700,1,1,1,1
0.698742700,1,0,1,1
0.698751900,1,0,1,0
0.701745600,1,0,1,1
0.702747600,1,0,0,1
0.702756700,0,0,0,1
0.704749500,0,0,0,0
0.705752400,0,1,0,0
0.707755600,1,1,0,0
0.707764600,1,1,0,1
0.710758100,1,1,0,0
0.712763100,1,0,0,0
0.712772300,0,0,0,0
0.713764300,0,0,1,0
0.713773500,0,0,1,1
0.716766800,0,0,1,0
0.717768100,1,0,1,0
0.719772900,1,1,1,0
0.719782100,1,1,1,1
0.722776300,0,1,1,1
0.722785500,0,1,1,0
0.724778100,0,1,0,0
0.725779600,0,1,0,1
0.726780900,0,0,0,1
0.727783600,1,0,0,1
0.728784500,1,0,0,0
0.731787600,1,0,0,1
0.732788700,0,0,0,1
0.733790100,0,1,0,1
0.734791500,0,1,0,0
0.735792800,0,1,1,0
0.737797700,1,1,1,0
0.737806700,1,1,1,1
0.740800900,1,0,1,1
0.740810100,1,0,1,0
0.742802700,0,0,1,0
0.743804300,0,0,1,1
0.746810100,0,0,0,1
0.746819300,0,0,0,0
0.747811400,0,1,0,0
0.747820400,1,1,0,0
0.749812900,1,1,0,1
0.752818500,0,1,0,1
0.752827700,0,1,0,0
0.754820200,0,0,0,0
0.755821500,0,0,0,1
0.757826300,0,0,1,1
0.757835500,1,0,1,1
0.758826900,1,0,1,0
0.761830900,1,1,1,0
0.761840000,1,1,1,1
0.762831200,0,1,1,1
0.764834900,0,1,1,0
0.767839000,1,1,1,0
0.767848100,1,1,1,1
0.768840100,1,1,0,1
0.768849300,1,0,0,1
0.770843500,1,0,0,0
0.772845600,0,0,0,0
0.773846800,0,0,0,1
0.775849400,0,1,0,1
0.776850900,0,1,0,0
0.777853800,1,1,0,0
0.779857100,1,1,1,0
0.779866200,1,1,1,1
0.782861100,1,0,1,1
0.782870000,0,0,1,1
0.782878800,0,0,1,0
0.785863800,0,0,1,1
0.787865900,1,0,1,1
0.788867300,1,0,1,0
0.789868500,1,1,1,0
0.790869900,1,1,0,0
0.791871300,1,1,0,1
0.792873900,0,1,0,1
0.794876400,0,1,0,0
0.796878700,0,0,0,0
0.797880900,1,0,0,0
0.797889900,1,0,0,1
0.800885000,1,0,0,0
0.801886400,1,0,1,0
0.802887700,0,0,1,0
0.803889700,0,1,1,0
0.803898700,0,1,1,1
0.806893900,0,1,1,0
0.807894900,1,1,1,0
0.809897600,1,1,1,1
0.810899100,1,0,1,1
0.812903000,1,0,0,1
0.812912000,0,0,0,1
0.812921000,0,0,0,0
0.815906200,0,0,0,1
0.817909400,0,1,0,1
0.817918600,1,1,0,1
0.818911400,1,1,0,0
0.821914700,1,1,0,1
0.822916000,0,1,0,1
0.823917400,0,1,1,1
0.824919500,0,0,1,1
0.824928500,0,0,1,0
0.827924800,1,0,1,0
0.827933900,1,0,1,1
0.830929400,1,0,1,0
0.831930800,1,1,1,0
0.832932300,0,1,1,0
0.833933600,0,1,1,1
0.834934800,0,1,0,1
0.836937700,0,1,0,0
0.837939200,1,1,0,0
0.838940600,1,0,0,0
0.839942100,1,0,0,1
0.842947600,0,0,0,1
0.842956800,0,0,0,0
0.845951800,0,0,1,0
0.845960800,0,1,1,0
0.845969800,0,1,1,1
0.847953900,1,1,1,1
0.848955100,1,1,1,0
0.851960000,1,1,1,1
0.852962000,1,0,1,1
0.852971100,0,0,1,1
0.854963700,0,0,1,0
0.856966200,0,0,0,0
0.857968200,1,0,0,0
0.857977200,1,0,0,1
0.859971200,1,1,0,1
0.860972300,1,1,0,0
0.862974500,0,1,0,0
0.863975900,0,1,0,1
0.866981300,0,0,0,1
0.866990500,0,0,0,0
0.867982400,0,0,1,0
0.867991500,1,0,1,0
0.869983900,1,0,1,1
0.872989500,0,0,1,1
0.872998500,0,0,1,0
0.873989600,0,1,1,0
0.875992200,0,1,1,1
0.877996400,1,1,1,1
0.878998400,1,1,0,1
0.879007500,1,1,0,0
0.880999700,1,0,0,0
0.882000900,1,0,0,1
0.883002000,0,0,0,1
0.885006400,0,0,0,0
0.888011400,0,1,0,0
0.888020300,1,1,0,0
0.888029300,1,1,0,1
0.890013600,1,1,1,1
0.891015000,1,1,1,0
0.893017200,0,1,1,0
0.894018500,0,1,1,1
0.895019500,0,0,1,1
0.897022100,0,0,1,0
0.898024700,1,0,1,0
0.900027300,1,0,1,1
0.901028700,1,0,0,1
0.902030100,1,1,0,1
0.903032000,0,1,0,1
0.903040900,0,1,0,0
0.906036300,0,1,0,1
0.908039500,1,1,0,1
0.909041800,1,0,0,1
0.909051000,1,0,0,0
0.912047500,1,0,1,0
0.912056700,1,0,1,1
0.913047900,0,0,1,1
0.915050500,0,0,1,0
0.916051800,0,1,1,0
0.918055300,1,1,1,0
0.918064500,1,1,1,1
0.921059700,1,1,1,0
0.923063600,1,1,0,0
0.923072600,1,0,0,0
0.923081600,0,0,0,0
0.924064400,0,0,0,1
0.927067800,0,0,0,0
0.928068900,1,0,0,0
0.930072100,1,1,0,0
0.930081300,1,1,0,1
0.933077000,0,1,0,1
0.933086200,0,1,0,0
0.934077400,0,1,1,0
0.936080000,0,1,1,1
0.937081200,0,0,1,1
0.938082500,1,0,1,1
0.939085100,1,0,1,0
0.942088500,1,0,1,1
0.943089800,0,0,1,1
0.944091200,0,1,1,1
0.945093300,0,1,0,1
0.945102500,0,1,0,0
0.948098500,1,1,0,0
0.948107500,1,1,0,1
0.951102500,1,0,0,1
0.951111600,1,0,0,0
0.953106000,0,0,0,0
0.954107600,0,0,0,1
0.956110100,0,0,1,1
0.957111500,0,0,1,0
0.958113600,0,1,1,0
0.958122600,1,1,1,0
0.960116500,1,1,1,1
0.963120800,0,1,1,1
0.963130000,0,1,1,0
0.965124000,0,0,1,0
0.966125300,0,0,1,1
0.967126500,0,0,0,1
0.968127800,1,0,0,1
0.969129000,1,0,0,0
0.972134800,1,1,0,0
0.972144000,1,1,0,1
0.973135000,0,1,0,1
0.975137300,0,1,0,0
0.978142300,0,1,1,0
0.978151300,1,1,1,0
0.978160300,1,1,1,1
0.979143100,1,0,1,1
0.981145400,1,0,1,0
0.983147700,0,0,1,0
0.984150500,0,0,1,1
0.986152700,0,1,1,1
0.987153900,0,1,1,0
0.988155100,1,1,1,0
0.989156600,1,1,0,0
0.990157900,1,1,0,1
0.993163000,1,0,0,1
0.993171900,0,0,0,1
0.993180800,0,0,0,0
0.996165900,0,0,0,1
0.998169600,1,0,0,1
0.999171000,1,0,0,0
1.000172800,1,0,1,0
1.000182000,1,1,1,0
1.002174300,1,1,1,1
1.003175200,0,1,1,1
1.005179200,0,1,1,0
1.007181600,0,0,1,0
1.008183600,1,0,1,0
1.008192600,1,0,1,1
1.011186900,1,0,0,1
1.011196100,1,0,0,0
1.013190400,0,0,0,0
1.014192200,0,1,0,0
1.014201200,0,1,0,1
1.017194700,0,1,0,0
1.018197400,1,1,0,0
1.020200300,1,1,0,1
1.021201800,1,0,0,1
1.022203400,1,0,1,1
1.023205600,0,0,1,1
1.023214600,0,0,1,0
1.026210200,0,0,1,1
1.028213600,0,1,1,1
1.028222700,1,1,1,1
1.029214300,1,1,1,0
1.032218300,1,1,1,1
1.033220600,1,1,0,1
1.033229700,0,1,0,1
1.035224800,0,0,0,1
1.035233800,0,0,0,0
1.038228200,1,0,0,0
1.038237200,1,0,0,1
1.041232300,1,0,0,0
1.042233700,1,1,0,0
1.043235100,0,1,0,0
1.044237100,0,1,1,0
1.044246300,0,1,1,1
1.047240800,0,1,1,0
1.048241800,1,1,1,0
1.049242800,1,0,1,0
1.050243800,1,0,1,1
1.053249000,0,0,1,1
1.053258100,0,0,1,0
1.055250200,0,0,0,0
1.056252100,0,1,0,0
1.056261200,0,1,0,1
1.058253400,1,1,0,1
1.059254700,1,1,0,0
1.062259600,1,1,0,1
1.063261500,1,0,0,1
1.063270600,0,0,0,1
1.065263500,0,0,0,0
1.066264900,0,0,1,0
1.068268500,1,0,1,0
1.068277500,1,0,1,1
1.070271700,1,1,1,1
1.071273100,1,1,1,0
1.073275800,0,1,1,0
1.074277400,0,1,1,1
1.077284200,0,1,0,1
1.077293100,0,0,0,1
1.077302100,0,0,0,0
1.078283600,1,0,0,0
1.080286000,1,0,0,1
1.083292000,0,0,0,1
1.083301200,0,0,0,0
1.084292400,0,1,0,0
1.086295100,0,1,0,1
1.088298500,0,1,1,1
1.088307600,1,1,1,1
1.089300600,1,1,1,0
1.091302700,1,0,1,0
1.092303900,1,0,1,1
1.093304900,0,0,1,1
1.095309100,0,0,1,0
1.098314000,0,1,1,0
1.098322900,1,1,1,0
1.098331900,1,1,1,1
1.099313200,1,1,0,1
1.101317500,1,1,0,0
1.103319800,0,1,0,0
1.104321100,0,1,0,1
1.105322100,0,0,0,1
1.107325200,0,0,0,0
1.108328100,1,0,0,0
1.110331600,1,0,1,0
1.110340800,1,0,1,1
1.112333500,1,1,1,1
1.113335500,0,1,1,1
1.113344300,0,1,1,0
1.116339800,0,1,1,1
1.118342800,1,1,1,1
1.119345000,1,0,1,1
1.119354200,1,0,1,0
1.121347200,1,0,0,0
1.122349000,1,0,0,1
1.123351800,0,0,0,1
1.125354700,0,0,0,0
1.126356200,0,1,0,0
1.128359900,1,1,0,0
1.128369000,1,1,0,1
1.131364700,1,1,0,0
1.132366400,1,1,1,0
1.133368700,1,0,1,0
1.133377700,0,0,1,0
1.134369100,0,0,1,1
1.137374500,0,0,1,0
1.138375900,1,0,1,0
1.140379300,1,1,1,0
1.140388400,1,1,1,1
1.143384300,1,1,0,1
1.143393200,0,1,0,1
1.143402200,0,1,0,0
1.146388000,0,1,0,1
1.147389500,0,0,0,1
1.148391100,1,0,0,1
1.149393900,1,0,0,0
1.152397800,1,0,0,1
1.153399500,0,0,0,1
1.154401800,0,0,1,1
1.154411000,0,1,1,1
1.155402600,0,1,1,0
1.158408900,1,1,1,0
1.158417900,1,1,1,1
1.161412900,1,0,1,1
1.161422100,1,0,1,0
1.163416200,0,0,1,0
1.164417800,0,0,1,1
1.165418900,0,0,0,1
1.167421600,0,0,0,0
1.168423600,0,1,0,0
1.168432600,1,1,0,0
1.170426700,1,1,0,1
1.173431200,0,1,0,1
1.173440300,0,1,0,0
1.175433100,0,0,0,0
1.176435400,0,0,1,0
1.176444600,0,0,1,1
1.178438800,1,0,1,1
1.179440200,1,0,1,0
1.182444600,1,1,1,0
1.182453800,1,1,1,1
1.183446500,0,1,1,1
1.185448900,0,1,1,0
1.187451300,0,1,0,0
1.188453400,1,1,0,0
1.188462400,1,1,0,1
1.189455200,1,0,0,1
1.191457600,1,0,0,0
1.193460100,0,0,0,0
1.194461700,0,0,0,1
1.196464300,0,1,0,1
1.197465800,0,1,0,0
1.198467700,0,1,1,0
1.198476800,1,1,1,0
1.200470900,1,1,1,1
1.203475700,1,0,1,1
1.203484700,0,0,1,1
1.203493500,0,0,1,0
1.206478500,0,0,1,1
1.208480900,1,0,1,1
1.209482900,1,0,0,1
1.209492000,1,0,0,0
1.210484700,1,1,0,0
1.212487000,1,1,0,1
1.213488000,0,1,0,1
1.215490300,0,1,0,0
1.217494600,0,0,0,0
1.218496700,1,0,0,0
1.218505700,1,0,0,1
1.220497900,1,0,1,1
1.221499300,1,0,1,0
1.223501700,0,0,1,0
1.224503700,0,1,1,0
1.224512900,0,1,1,1
1.227507800,0,1,1,0
1.228508800,1,1,1,0
1.230511600,1,1,1,1
1.231513700,1,1,0,1
1.231522800,1,0,0,1
1.233518000,0,0,0,1
1.233527100,0,0,0,0
1.236520900,0,0,0,1
1.238524300,0,1,0,1
1.238533500,1,1,0,1
1.239526700,1,1,0,0
1.242530700,1,1,1,0
1.242539800,1,1,1,1
1.243531400,0,1,1,1
1.245534400,0,0,1,1
1.245543400,0,0,1,0
1.248539100,1,0,1,0
1.248548300,1,0,1,1
1.251543500,1,0,1,0
1.252544800,1,1,1,0
1.253546900,1,1,0,0
1.253556000,0,1,0,0
1.254547200,0,1,0,1
1.257550400,0,1,0,0
1.258553200,1,1,0,0
1.259554400,1,0,0,0
1.260555700,1,0,0,1
1.263559800,0,0,0,1
1.263568900,0,0,0,0
1.264560400,0,0,1,0
1.266563800,0,1,1,0
1.266572800,0,1,1,1
1.268566700,1,1,1,1
1.269567900,1,1,1,0
1.272573100,1,1,1,1
1.273575200,1,0,1,1
1.273584400,0,0,1,1
1.275577700,0,0,0,1
1.275586800,0,0,0,0
1.278581400,1,0,0,0
1.278590400,1,0,0,1
1.280584400,1,1,0,1
1.281585800,1,1,0,0
1.283588500,0,1,0,0
1.284590100,0,1,0,1
1.286593000,0,1,1,1
1.287595300,0,0,1,1
1.287604300,0,0,1,0
1.288597300,1,0,1,0
1.290599900,1,0,1,1
1.293606500,0,0,1,1
1.293615600,0,0,1,0
1.294607000,0,1,1,0
1.296610100,0,1,1,1
1.297611600,0,1,0,1
1.298613100,1,1,0,1
1.299614700,1,1,0,0
